
**** 10/24/19 23:08:07 ****** PSpice 16.5.0 (April 2011) ****** ID# 0 ********

 ** Profile: "SCHEMATIC1-iuth"  [ C:\Users\joel_\Documents\p3\Queso rpresa\figp16_1-pspicefiles\schematic1\iuth.sim ] 


 ****     CIRCUIT DESCRIPTION


******************************************************************************




** Creating circuit file "iuth.cir" 
** WARNING: THIS AUTOMATICALLY GENERATED FILE MAY BE OVERWRITTEN BY SUBSEQUENT SIMULATIONS

*Libraries: 
* Profile Libraries :
* Local Libraries :
* From [PSPICE NETLIST] section of C:\Cadence\SPB_16.5\tools\PSpice\PSpice.ini file:
.lib "nom.lib" 

*Analysis directives: 
.TRAN  0 1 0 0 
.PROBE V(alias(*)) I(alias(*)) W(alias(*)) D(alias(*)) NOISE(alias(*)) 
.INC "..\SCHEMATIC1.net" 



**** INCLUDING SCHEMATIC1.net ****
* source FIGP16_1
X_U1         N00580 N00139 N00297 N00526 N00160 LM741/NS
R_R2         N00139 N00160  10k  
R_R3         0 N00139  1k  
V_V1         N00580 0  
+SIN 0 250mV 60 0 0 0
V_V2         N00297 0 DC 15  
V_V3         N00526 0 DC -15  

**** RESUMING iuth.cir ****
.END

**** 10/24/19 23:08:07 ****** PSpice 16.5.0 (April 2011) ****** ID# 0 ********

 ** Profile: "SCHEMATIC1-iuth"  [ C:\Users\joel_\Documents\p3\Queso rpresa\figp16_1-pspicefiles\schematic1\iuth.sim ] 


 ****     Diode MODEL PARAMETERS


******************************************************************************




               X_U1.DX         
          IS    1.000000E-15 


**** 10/24/19 23:08:07 ****** PSpice 16.5.0 (April 2011) ****** ID# 0 ********

 ** Profile: "SCHEMATIC1-iuth"  [ C:\Users\joel_\Documents\p3\Queso rpresa\figp16_1-pspicefiles\schematic1\iuth.sim ] 


 ****     BJT MODEL PARAMETERS


******************************************************************************




               X_U1.QX         
               NPN             
       LEVEL    1            
          IS  100.000000E-18 
          BF  625            
          NF    1            
          BR    1            
          NR    1            
         ISS    0            
          RE    0            
          RC    0            
         CJE    0            
         VJE     .75         
         CJC    0            
         VJC     .75         
         MJC     .33         
        XCJC    1            
         CJS    0            
         VJS     .75         
          KF    0            
          AF    1            
          CN    2.42         
           D     .87         


**** 10/24/19 23:08:07 ****** PSpice 16.5.0 (April 2011) ****** ID# 0 ********

 ** Profile: "SCHEMATIC1-iuth"  [ C:\Users\joel_\Documents\p3\Queso rpresa\figp16_1-pspicefiles\schematic1\iuth.sim ] 


 ****     INITIAL TRANSIENT SOLUTION       TEMPERATURE =   27.000 DEG C


******************************************************************************



 NODE   VOLTAGE     NODE   VOLTAGE     NODE   VOLTAGE     NODE   VOLTAGE


(N00139)     .0010 (N00160)     .0120 (N00297)   15.0000 (N00526)  -15.0000     

(N00580)    0.0000 (X_U1.3) 500.0E-06 (X_U1.4)    -.6957 (X_U1.5)   14.9740     

(X_U1.6)   14.9740 (X_U1.7)     .0010 (X_U1.8)   13.3700 (X_U1.9)     .0122     

(X_U1.10)  -13.3700                   (X_U1.15)     .0122                       

(X_U1.16) 15.81E-09                   (X_U1.17)    0.0000                       

(X_U1.20)     .1920                   (X_U1.21)    -.1680                       

(X_U1.22)     .0120                   (X_U1.23)     .0122                       

(X_U1.24)     .0141                   (X_U1.25)     .0103                       

(X_U1.26)     .6620                   (X_U1.27)    -.6380                       

(X_U1.49)    0.0000                   (X_U1.98)    0.0000                   




    VOLTAGE SOURCE CURRENTS
    NAME         CURRENT

    V_V1        -5.786E-08
    V_V2        -1.702E-03
    V_V3         1.701E-03
    X_U1.V2      1.336E-11
    X_U1.V3      1.338E-11
    X_U1.V6     -7.572E-05
    X_U1.V7     -7.682E-05
    X_U1.V5     -1.812E-13
    X_U1.V4     -1.808E-13

    TOTAL POWER DISSIPATION   5.11E-02  WATTS



          JOB CONCLUDED

**** 10/24/19 23:08:07 ****** PSpice 16.5.0 (April 2011) ****** ID# 0 ********

 ** Profile: "SCHEMATIC1-iuth"  [ C:\Users\joel_\Documents\p3\Queso rpresa\figp16_1-pspicefiles\schematic1\iuth.sim ] 


 ****     JOB STATISTICS SUMMARY


******************************************************************************



  Total job time (using Solver 1)   =         .13
