
**** 10/24/19 19:37:37 ****** PSpice 16.5.0 (April 2011) ****** ID# 0 ********

 ** Profile: "SCHEMATIC1-48"  [ C:\USERS\JOEL_\DOCUMENTS\p3\fig9_27-PSpiceFiles\SCHEMATIC1\48.sim ] 


 ****     CIRCUIT DESCRIPTION


******************************************************************************




** Creating circuit file "48.cir" 
** WARNING: THIS AUTOMATICALLY GENERATED FILE MAY BE OVERWRITTEN BY SUBSEQUENT SIMULATIONS

*Libraries: 
* Profile Libraries :
* Local Libraries :
* From [PSPICE NETLIST] section of C:\Cadence\SPB_16.5\tools\PSpice\PSpice.ini file:
.lib "nom.lib" 

*Analysis directives: 
.TRAN  0 10m 0 0 
.PROBE V(alias(*)) I(alias(*)) W(alias(*)) D(alias(*)) NOISE(alias(*)) 
.INC "..\SCHEMATIC1.net" 



**** INCLUDING SCHEMATIC1.net ****
* source FIG9_27
X_U1         N00103 0 N00317 N00329 N00120 LM741/NS
R_R1         N00199 N00103  1.2k  
R_R2         N00103 N00120  120k  
V_V1         N00199 0  
+SIN 0 100mV 1k 0 0 0
V_V2         N00317 0 DC 15  
V_V3         N00329 0 DC -15  

**** RESUMING 48.cir ****
.END

**** 10/24/19 19:37:37 ****** PSpice 16.5.0 (April 2011) ****** ID# 0 ********

 ** Profile: "SCHEMATIC1-48"  [ C:\USERS\JOEL_\DOCUMENTS\p3\fig9_27-PSpiceFiles\SCHEMATIC1\48.sim ] 


 ****     Diode MODEL PARAMETERS


******************************************************************************




               X_U1.DX         
          IS    1.000000E-15 


**** 10/24/19 19:37:37 ****** PSpice 16.5.0 (April 2011) ****** ID# 0 ********

 ** Profile: "SCHEMATIC1-48"  [ C:\USERS\JOEL_\DOCUMENTS\p3\fig9_27-PSpiceFiles\SCHEMATIC1\48.sim ] 


 ****     BJT MODEL PARAMETERS


******************************************************************************




               X_U1.QX         
               NPN             
       LEVEL    1            
          IS  100.000000E-18 
          BF  625            
          NF    1            
          BR    1            
          NR    1            
         ISS    0            
          RE    0            
          RC    0            
         CJE    0            
         VJE     .75         
         CJC    0            
         VJC     .75         
         MJC     .33         
        XCJC    1            
         CJS    0            
         VJS     .75         
          KF    0            
          AF    1            
          CN    2.42         
           D     .87         


**** 10/24/19 19:37:37 ****** PSpice 16.5.0 (April 2011) ****** ID# 0 ********

 ** Profile: "SCHEMATIC1-48"  [ C:\USERS\JOEL_\DOCUMENTS\p3\fig9_27-PSpiceFiles\SCHEMATIC1\48.sim ] 


 ****     INITIAL TRANSIENT SOLUTION       TEMPERATURE =   27.000 DEG C


******************************************************************************



 NODE   VOLTAGE     NODE   VOLTAGE     NODE   VOLTAGE     NODE   VOLTAGE


(N00103)    -.0010 (N00120)    -.0941 (N00199)    0.0000 (N00317)   15.0000     

(N00329)  -15.0000 (X_U1.3)-500.2E-06 (X_U1.4)    -.6967 (X_U1.5)   14.9740     

(X_U1.6)   14.9740 (X_U1.7)-471.1E-09 (X_U1.8)   13.3700 (X_U1.9)    -.0942     

(X_U1.10)  -13.3700                   (X_U1.15)    -.0942                       

(X_U1.16)-15.82E-09                   (X_U1.17)    0.0000                       

(X_U1.20)     .0859                   (X_U1.21)    -.2741                       

(X_U1.22)    -.0941                   (X_U1.23)    -.0942                       

(X_U1.24)    -.0923                   (X_U1.25)    -.0961                       

(X_U1.26)     .5559                   (X_U1.27)    -.7441                       

(X_U1.49)    0.0000                   (X_U1.98)    0.0000                   




    VOLTAGE SOURCE CURRENTS
    NAME         CURRENT

    V_V1        -8.337E-07
    V_V2        -1.701E-03
    V_V3         1.702E-03
    X_U1.V2      1.347E-11
    X_U1.V3      1.328E-11
    X_U1.V6     -7.666E-05
    X_U1.V7     -7.588E-05
    X_U1.V5     -1.809E-13
    X_U1.V4     -1.811E-13

    TOTAL POWER DISSIPATION   5.11E-02  WATTS



          JOB CONCLUDED

**** 10/24/19 19:37:37 ****** PSpice 16.5.0 (April 2011) ****** ID# 0 ********

 ** Profile: "SCHEMATIC1-48"  [ C:\USERS\JOEL_\DOCUMENTS\p3\fig9_27-PSpiceFiles\SCHEMATIC1\48.sim ] 


 ****     JOB STATISTICS SUMMARY


******************************************************************************



  Total job time (using Solver 1)   =         .06
