
**** 10/24/19 23:16:13 ****** PSpice 16.5.0 (April 2011) ****** ID# 0 ********

 ** Profile: "SCHEMATIC1-778"  [ C:\Users\joel_\Documents\p3\Queso rpresa\fig9_29-pspicefiles\schematic1\778.sim ] 


 ****     CIRCUIT DESCRIPTION


******************************************************************************




** Creating circuit file "778.cir" 
** WARNING: THIS AUTOMATICALLY GENERATED FILE MAY BE OVERWRITTEN BY SUBSEQUENT SIMULATIONS

*Libraries: 
* Profile Libraries :
* Local Libraries :
* From [PSPICE NETLIST] section of C:\Cadence\SPB_16.5\tools\PSpice\PSpice.ini file:
.lib "nom.lib" 

*Analysis directives: 
.TRAN  0 10m 0 0 
.PROBE V(alias(*)) I(alias(*)) W(alias(*)) D(alias(*)) NOISE(alias(*)) 
.INC "..\SCHEMATIC1.net" 



**** INCLUDING SCHEMATIC1.net ****
* source FIG9_29
V_V1         N00818 0  
+SIN 0 12m 1k 0 0 0
X_U1         N00818 N00766 N00916 N00878 N00804 LM741/NS
R_R2         0 N00766  800k  
V_V3         N00916 0 DC 15  
R_R1         N00766 N00804  200k  
V_V2         N00878 0 DC -15  

**** RESUMING 778.cir ****
.END

**** 10/24/19 23:16:13 ****** PSpice 16.5.0 (April 2011) ****** ID# 0 ********

 ** Profile: "SCHEMATIC1-778"  [ C:\Users\joel_\Documents\p3\Queso rpresa\fig9_29-pspicefiles\schematic1\778.sim ] 


 ****     Diode MODEL PARAMETERS


******************************************************************************




               X_U1.DX         
          IS    1.000000E-15 


**** 10/24/19 23:16:13 ****** PSpice 16.5.0 (April 2011) ****** ID# 0 ********

 ** Profile: "SCHEMATIC1-778"  [ C:\Users\joel_\Documents\p3\Queso rpresa\fig9_29-pspicefiles\schematic1\778.sim ] 


 ****     BJT MODEL PARAMETERS


******************************************************************************




               X_U1.QX         
               NPN             
       LEVEL    1            
          IS  100.000000E-18 
          BF  625            
          NF    1            
          BR    1            
          NR    1            
         ISS    0            
          RE    0            
          RC    0            
         CJE    0            
         VJE     .75         
         CJC    0            
         VJC     .75         
         MJC     .33         
        XCJC    1            
         CJS    0            
         VJS     .75         
          KF    0            
          AF    1            
          CN    2.42         
           D     .87         


**** 10/24/19 23:16:13 ****** PSpice 16.5.0 (April 2011) ****** ID# 0 ********

 ** Profile: "SCHEMATIC1-778"  [ C:\Users\joel_\Documents\p3\Queso rpresa\fig9_29-pspicefiles\schematic1\778.sim ] 


 ****     INITIAL TRANSIENT SOLUTION       TEMPERATURE =   27.000 DEG C


******************************************************************************



 NODE   VOLTAGE     NODE   VOLTAGE     NODE   VOLTAGE     NODE   VOLTAGE


(N00766) 999.9E-06 (N00804)     .0216 (N00818)    0.0000 (N00878)  -15.0000     

(N00916)   15.0000 (X_U1.3) 500.0E-06 (X_U1.4)    -.6957 (X_U1.5)   14.9740     

(X_U1.6)   14.9740 (X_U1.7)     .0010 (X_U1.8)   13.3700 (X_U1.9)     .0216     

(X_U1.10)  -13.3700                   (X_U1.15)     .0216                       

(X_U1.16) 15.81E-09                   (X_U1.17)    0.0000                       

(X_U1.20)     .2016                   (X_U1.21)    -.1584                       

(X_U1.22)     .0216                   (X_U1.23)     .0216                       

(X_U1.24)     .0235                   (X_U1.25)     .0197                       

(X_U1.26)     .6716                   (X_U1.27)    -.6284                       

(X_U1.49)    0.0000                   (X_U1.98)    0.0000                   




    VOLTAGE SOURCE CURRENTS
    NAME         CURRENT

    V_V1        -5.786E-08
    V_V3        -1.701E-03
    V_V2         1.701E-03
    X_U1.V2      1.335E-11
    X_U1.V3      1.339E-11
    X_U1.V6     -7.622E-05
    X_U1.V7     -7.632E-05
    X_U1.V5     -1.810E-13
    X_U1.V4     -1.810E-13

    TOTAL POWER DISSIPATION   5.11E-02  WATTS



          JOB CONCLUDED

**** 10/24/19 23:16:13 ****** PSpice 16.5.0 (April 2011) ****** ID# 0 ********

 ** Profile: "SCHEMATIC1-778"  [ C:\Users\joel_\Documents\p3\Queso rpresa\fig9_29-pspicefiles\schematic1\778.sim ] 


 ****     JOB STATISTICS SUMMARY


******************************************************************************



  Total job time (using Solver 1)   =         .08
